(1542794024.860693) can0 1CFF1906#419F010B00000000
(1542794024.886119) can0 09F50303#030000FFFF00FFFF
(1542794024.888667) can0 09FD0205#00000079E2FAFFFF
(1542794024.910867) can0 09F80101#C7A0D817C0808002
(1542794024.911446) can0 09F80201#EBFC00000500FFFF
(1542794024.912023) can0 19FA0301#EBD73C006E00FF7F
(1542794024.936214) can0 08FF000A#1399040500000200
(1542794024.988594) can0 09FD0205#000000C6E2FAFFFF
(1542794025.010860) can0 09F80101#C7A0D817C0808002
(1542794025.064378) can0 09FD0205#00000071E3FAFFFF
(1542794025.086136) can0 09F50303#040000FFFF00FFFF
(1542794025.110617) can0 1DF11A01#EBFFFFFFF500FFFF
(1542794025.111211) can0 1DF11A04#EAFFFFFFF500FFFF
(1542794025.111790) can0 09F80101#C7A0D817C0808002
(1542794025.160469) can0 09F80201#EBFC00000000FFFF
(1542794025.185735) can0 08FF000A#1399040500000200
(1542794025.188651) can0 09FD0205#000000C6E3FAFFFF
(1542794025.210786) can0 09F80101#C7A0D817C0808002
(1542794025.260690) can0 0DF01001#EBF0C145502A3F19
(1542794025.286099) can0 09F50303#050000FFFF00FFFF
(1542794025.288652) can0 09FD0205#000000B2E4FAFFFF
(1542794025.311131) can0 09F80101#C7A0D817C0808002
(1542794025.315691) can0 1DEFFF03#A00FE59856050404
(1542794025.316267) can0 1DEFFF03#A103000000010000
(1542794025.316853) can0 1DEFFF03#A20000FFFFFFFFFF
(1542794025.388584) can0 09FD0205#0000004CE5FAFFFF
(1542794025.410602) can0 1CFF1906#419F010300000000
(1542794025.411181) can0 09F80101#C7A0D817C0808002
(1542794025.411779) can0 09F80201#ECFC00000500FFFF
(1542794025.435967) can0 08FF000A#1399040500000200
(1542794025.461021) can0 0DF80501#402BECC14560513F
(1542794025.461575) can0 0DF80501#4119004971972F58
(1542794025.462135) can0 0DF80501#428D0500801719F3
(1542794025.462701) can0 0DF80501#43209500F4A02003
(1542794025.463288) can0 0DF80501#440000000010FC0C
(1542794025.463858) can0 0DF80501#453C007800BA1300
(1542794025.464439) can0 0DF80501#4600FFFFFFFFFFFF
(1542794025.486098) can0 09F50303#060000FFFF00FFFF
(1542794025.488839) can0 09FD0205#001900F1E5FAFFFF
(1542794025.510773) can0 09F80101#C7A0D817C0808002
(1542794025.511334) can0 19FA0401#4093ECFE0C01390A
(1542794025.511907) can0 19FA0401#41E664800C000000
(1542794025.512477) can0 19FA0401#4200F2027F077CD9
(1542794025.513051) can0 19FA0401#43F00A00000000F2
(1542794025.513602) can0 19FA0401#4403F31B39379411
(1542794025.514175) can0 19FA0401#4500000000F206C5
(1542794025.514731) can0 19FA0401#46224DD1A00F0000
(1542794025.515295) can0 19FA0401#470000F207FF0EE6
(1542794025.515863) can0 19FA0401#4873D80E00000000
(1542794025.516422) can0 19FA0401#49F2097F347CAC3C
(1542794025.536046) can0 19FA0401#4A0F00000000F211
(1542794025.536608) can0 19FA0401#4BAE0FCE9C100E00
(1542794025.537167) can0 19FA0401#4C000000F2137314
(1542794025.537725) can0 19FA0401#4D36AF3011000000
(1542794025.538289) can0 19FA0401#4E00F216AE0F1640
(1542794025.538860) can0 19FA0401#4FA00F00000000F2
(1542794025.539412) can0 19FA0401#5017B92FA21CD80E
(1542794025.539984) can0 19FA0401#5100000000F24A5C
(1542794025.540556) can0 19FA0401#5210DC2600000000
(1542794025.541114) can0 19FA0401#530000F242D11593
(1542794025.541700) can0 19FA0401#54BF1C0C00000000
(1542794025.560736) can0 19FA0401#55F2FFFFFFFFFFFF
(1542794025.561327) can0 0DF90304#EA3FFFFFFF7FFFFF
(1542794025.561918) can0 0DF90404#4022EAFFFFFFFFFF
(1542794025.562527) can0 0DF90404#41FFFFFFFFFFFFFF
(1542794025.563127) can0 0DF90404#42FFFFFFFFFFFFFF
(1542794025.563731) can0 0DF90404#43FFFFFFFFFFFFFF
(1542794025.564320) can0 0DF90404#447FFFFFFF7FFF7F
(1542794025.588707) can0 09FD0205#001900DDE6FAFFFF
(1542794025.610920) can0 09F80101#C7A0D817C1808002
(1542794025.660732) can0 09F80201#ECFC00000500FFFF
(1542794025.661310) can0 0DFF0804#40027D99FFFFFFFF
(1542794025.686055) can0 08FF000A#1399040500000200
(1542794025.686630) can0 09F50303#070000FFFF00FFFF
(1542794025.710488) can0 09F80101#C7A0D817C1808002
(1542794025.738574) can0 09FD0205#001900AEE8FAFFFF
(1542794025.810718) can0 09F80101#B6A0D817DC808002
(1542794025.838581) can0 09FD0205#001900A5E9FAFFFF
(1542794025.886147) can0 09F50303#080000FFFF00FFFF
(1542794025.910754) can0 1CFF1906#419F010B00000000
(1542794025.911333) can0 09F80101#B6A0D817DC808002
(1542794025.911931) can0 09F80201#ECFC00000500FFFF
(1542794025.912499) can0 19FA0301#ECD73C006E00FF7F
(1542794025.936099) can0 08FF000A#1399040500000200
(1542794025.938653) can0 09FD0205#00000001EBFAFFFF
(1542794026.010876) can0 09F80101#B6A0D817DC808002
(1542794026.014407) can0 09FD0205#00000048ECFAFFFF
(1542794026.086116) can0 09F50303#090000FFFF00FFFF
(1542794026.110655) can0 1DF11A01#ECFFFFFFF500FFFF
(1542794026.111244) can0 1DF11A04#EBFFFFFFF500FFFF
(1542794026.111820) can0 09F80101#B6A0D817DC808002
(1542794026.138578) can0 09FD0205#0000009FEDFAFFFF
(1542794026.160520) can0 09F80201#ECFC00000500FFFF
(1542794026.185852) can0 08FF000A#1399040500000200
(1542794026.210756) can0 09F80101#B6A0D817DC808002
(1542794026.238576) can0 09FD0205#000000CAEEFAFFFF
(1542794026.260592) can0 0DF01001#ECF0C14560513F19
(1542794026.286197) can0 09F50303#0A0000FFFF00FFFF
(1542794026.286762) can0 09FD0803#0A0100FC70FFFFFF
(1542794026.310962) can0 09F80101#B6A0D817DC808002
(1542794026.315696) can0 1DEFFF03#C00FE59856050404
(1542794026.316279) can0 1DEFFF03#C103000000010000
(1542794026.316858) can0 1DEFFF03#C20000FFFFFFFFFF
(1542794026.338773) can0 09FD0205#0000004BF0FAFFFF
(1542794026.411196) can0 1CFF1906#419F010300000000
(1542794026.411774) can0 09F80101#B6A0D817DC808002
(1542794026.412361) can0 09F80201#EDFC00000500FFFF
(1542794026.435510) can0 08FF000A#1399040500000200
(1542794026.438636) can0 09FD0205#0000000EF2FAFFFF
(1542794026.460751) can0 0DF80501#602BEDC14570783F
(1542794026.461315) can0 0DF80501#6119002308B62B58
(1542794026.461875) can0 0DF80501#628D0558DBE3B1F9
(1542794026.462451) can0 0DF80501#6320950000C82003
(1542794026.463042) can0 0DF80501#640000000010FC0C
(1542794026.463616) can0 0DF80501#653C007800BA1300
(1542794026.464213) can0 0DF80501#6600FFFFFFFFFFFF
(1542794026.486161) can0 09F50303#0B0000FFFF00FFFF
(1542794026.510893) can0 09F80101#B6A0D817DC808002
(1542794026.511457) can0 19FA0401#6093EDFE0C01390A
(1542794026.512028) can0 19FA0401#61E664800C000000
(1542794026.512592) can0 19FA0401#6200F2027F077CD9
(1542794026.513169) can0 19FA0401#63F00A00000000F2
(1542794026.513738) can0 19FA0401#6403F31B39379411
(1542794026.514309) can0 19FA0401#6500000000F206C5
(1542794026.514870) can0 19FA0401#66224DD1A00F0000
(1542794026.515438) can0 19FA0401#670000F207FF0EE6
(1542794026.516042) can0 19FA0401#6873D80E00000000
(1542794026.516598) can0 19FA0401#69F2097F347CAC3C
(1542794026.536122) can0 19FA0401#6A0F00000000F211
(1542794026.536688) can0 19FA0401#6BAE0FCE9C100E00
(1542794026.537248) can0 19FA0401#6C000000F2137314
(1542794026.537816) can0 19FA0401#6D36AF3011000000
(1542794026.538371) can0 19FA0401#6E00F216AE0F1640
(1542794026.538948) can0 19FA0401#6FA00F00000000F2
(1542794026.539524) can0 09FD0205#000000D6F3FAFFFF
(1542794026.540072) can0 19FA0401#7017B92FA21CD80E
(1542794026.540641) can0 19FA0401#7100000000F24A5C
(1542794026.541206) can0 19FA0401#7210DC2600000000
(1542794026.541769) can0 19FA0401#730000F242D11593
(1542794026.542337) can0 19FA0401#74BF1C0C00000000
(1542794026.560544) can0 19FA0401#75F2FFFFFFFFFFFF
(1542794026.561098) can0 0DF90304#EB3FFFFFFF7FFFFF
(1542794026.561675) can0 0DF90404#6022EBFFFFFFFFFF
(1542794026.562275) can0 0DF90404#61FFFFFFFFFFFFFF
(1542794026.562870) can0 0DF90404#62FFFFFFFFFFFFFF
(1542794026.563467) can0 0DF90404#63FFFFFFFFFFFFFF
(1542794026.564048) can0 0DF90404#647FFFFFFF7FFF7F
(1542794026.610458) can0 09F80101#B6A0D817DC808002
(1542794026.638576) can0 09FD0205#0000004C00FAFFFF
(1542794026.661245) can0 09F80201#EDFC00000500FFFF
(1542794026.661853) can0 0DFF0804#60027D99FFFFFFFF
(1542794026.685599) can0 08FF000A#1399040500000200
(1542794026.686175) can0 09F50303#0C0000FFFF00FFFF
(1542794026.711232) can0 09F80101#B6A0D817DC808002
(1542794026.738570) can0 09FD0205#0000004402FAFFFF
(1542794026.810835) can0 09F80101#A4A0D817EB808002
(1542794026.838576) can0 09FD0205#0000002C04FAFFFF
(1542794026.886172) can0 09F50303#0D0000FFFF00FFFF
(1542794026.910834) can0 1CFF1906#419F010B00000000
(1542794026.911416) can0 09F80101#A4A0D817EB808002
(1542794026.912014) can0 09F80201#EDFC00000500FFFF
(1542794026.912599) can0 19FA0301#EDD73C006E00FF7F
(1542794026.936172) can0 08FF000A#1399040500000200
(1542794026.938640) can0 09FD0205#0000004206FAFFFF
(1542794027.011098) can0 09F80101#A4A0D817EB808002
(1542794027.038574) can0 09FD0205#0000002208FAFFFF
(1542794027.086182) can0 09F50303#0E0000FFFF00FFFF
(1542794027.110394) can0 1DF11A01#EDFFFFFFF500FFFF
(1542794027.110979) can0 1DF11A04#ECFFFFFFF500FFFF
(1542794027.111559) can0 09F80101#A4A0D817EB808002
(1542794027.138566) can0 09FD0205#000000150AFAFFFF
(1542794027.161239) can0 09F80201#EDFC00000500FFFF
(1542794027.185571) can0 08FF000A#1399040500000200
(1542794027.210787) can0 09F80101#A4A0D817EB808002
(1542794027.238554) can0 09FD0205#001900EE0BFAFFFF
(1542794027.260612) can0 0DF01001#EDF0C14570783F19
(1542794027.286152) can0 09F50303#0F0000FFFF00FFFF
(1542794027.310876) can0 09F80101#A4A0D817EB808002
(1542794027.315709) can0 1DEFFF03#E00FE59856050404
(1542794027.316284) can0 1DEFFF03#E103000000010000
(1542794027.316872) can0 1DEFFF03#E20000FFFFFFFFFF
(1542794027.338752) can0 09FD0205#001900DE0DFAFFFF
(1542794027.410443) can0 1CFF1906#419F010300000000
(1542794027.411017) can0 09F80101#A4A0D817EB808002
(1542794027.411607) can0 09F80201#EEFC00000500FFFF
(1542794027.435699) can0 08FF000A#1399040500000200
(1542794027.438616) can0 09FD0205#001900F10FFAFFFF
(1542794027.461218) can0 0DF80501#802BEEC145809F3F
(1542794027.461768) can0 0DF80501#811940AB47712758
(1542794027.462351) can0 0DF80501#828D0558B1F52FFD
(1542794027.462923) can0 0DF80501#8320950000C82003
(1542794027.463530) can0 0DF80501#840000000010FC0C
(1542794027.464060) can0 0DF80501#853C007800BA1300
(1542794027.464648) can0 0DF80501#8600FFFFFFFFFFFF
(1542794027.486176) can0 09F50303#100000FFFF00FFFF
(1542794027.510738) can0 09F80101#A4A0D817EB808002
(1542794027.511298) can0 19FA0401#8093EEFE0C01390A
(1542794027.511870) can0 19FA0401#81E664800C000000
(1542794027.512434) can0 19FA0401#8200F2027F077CD9
(1542794027.513014) can0 19FA0401#83F00A00000000F2
(1542794027.513569) can0 19FA0401#8403F31B39379411
(1542794027.514134) can0 19FA0401#8500000000F206C5
(1542794027.514694) can0 19FA0401#86224DD1A00F0000
(1542794027.515263) can0 19FA0401#870000F207FF0EE6
(1542794027.515835) can0 19FA0401#8873D80E00000000
(1542794027.516403) can0 19FA0401#89F2097F347CACA0
(1542794027.535988) can0 19FA0401#8A0F00000000F211
(1542794027.536553) can0 19FA0401#8BAE0FCE9C100E00
(1542794027.537117) can0 19FA0401#8C000000F2137314
(1542794027.537680) can0 19FA0401#8D36AF3011000000
(1542794027.538237) can0 19FA0401#8E00F216AE0F1640
(1542794027.538812) can0 19FA0401#8FA00F00000000F2
(1542794027.539382) can0 09FD0205#001900E811FAFFFF
(1542794027.539930) can0 19FA0401#9017B92FA21CD80E
(1542794027.540513) can0 19FA0401#9100000000F24A5C
(1542794027.541086) can0 19FA0401#9210DC2600000000
(1542794027.541646) can0 19FA0401#930000F242D11593
(1542794027.542230) can0 19FA0401#94BF1C0C00000000
(1542794027.560596) can0 19FA0401#95F2FFFFFFFFFFFF
(1542794027.561169) can0 0DF90304#EC3FFFFFFF7FFFFF
(1542794027.561771) can0 0DF90404#8022ECFFFFFFFFFF
(1542794027.562373) can0 0DF90404#81FFFFFFFFFFFFFF
(1542794027.562995) can0 0DF90404#82FFFFFFFFFFFFFF
(1542794027.563600) can0 0DF90404#83FFFFFFFFFFFFFF
(1542794027.564184) can0 0DF90404#847FFFFFFF7FFF7F
(1542794027.610867) can0 09F80101#A4A0D817EB808002
(1542794027.638552) can0 09FD0205#000000AD13FAFFFF
(1542794027.660676) can0 09F80201#EEFC00000500FFFF
(1542794027.661259) can0 0DFF0804#80027D99FFFFFFFF
(1542794027.686031) can0 08FF000A#1399040500000200
(1542794027.686611) can0 09F50303#110000FFFF00FFFF
(1542794027.711193) can0 09F80101#A4A0D817EB808002
(1542794027.738557) can0 09FD0205#0000001C15FAFFFF
(1542794027.811214) can0 09F80101#9CA0D817EB808002
(1542794027.838562) can0 09FD0205#0000004C16FAFFFF
(1542794027.886173) can0 09F50303#120000FFFF00FFFF
(1542794027.911087) can0 1CFF1906#419F010B00000000
(1542794027.911671) can0 09F80101#9CA0D817EB808002
(1542794027.912262) can0 09F80201#EEFC00000A00FFFF
(1542794027.912837) can0 19FA0301#EED73C006E00FF7F
(1542794027.935430) can0 08FF000A#1399040500000200
(1542794027.938620) can0 09FD0205#0000004017FAFFFF
(1542794028.010300) can0 09F80101#9CA0D817EB808002
(1542794028.038552) can0 09FD0205#0000004118FAFFFF
(1542794028.086237) can0 09F50303#130000FFFF00FFFF
(1542794028.110965) can0 1DF11A01#EEFFFFFFF500FFFF
(1542794028.111546) can0 1DF11A04#EDFFFFFFF500FFFF
(1542794028.112125) can0 09F80101#9CA0D817EB808002
(1542794028.138547) can0 09FD0205#0000009618FAFFFF
(1542794028.160818) can0 09F80201#EEFC00000500FFFF
(1542794028.186141) can0 08FF000A#1399040500000200
(1542794028.210853) can0 09F80101#9CA0D817EB808002
(1542794028.238550) can0 09FD0205#0000001B18FAFFFF
(1542794028.260693) can0 0DF01001#EEF0C145809F3F19
(1542794028.286230) can0 09F50303#140000FFFF00FFFF
(1542794028.286803) can0 09FD0803#1401000F71FFFFFF
(1542794028.310714) can0 09F80101#9CA0D817EB808002
(1542794028.315733) can0 1DEFFF03#000FE59856050404
(1542794028.316315) can0 1DEFFF03#0103000000010000
(1542794028.316900) can0 1DEFFF03#020000FFFFFFFFFF
(1542794028.338769) can0 09FD0205#000000D317FAFFFF
(1542794028.410593) can0 1CFF1906#419F010300000000
(1542794028.411175) can0 09F80101#9CA0D817EB808002
(1542794028.411759) can0 09F80201#EFFC00000500FFFF
(1542794028.435903) can0 08FF000A#1399040500000200
(1542794028.438605) can0 09FD0205#000000DD16FAFFFF
(1542794028.460974) can0 0DF80501#A02BEFC14590C63F
(1542794028.461520) can0 0DF80501#A119401893802558
(1542794028.462077) can0 0DF80501#A28D0558B1F52FFD
(1542794028.462632) can0 0DF80501#A320950040642103
(1542794028.463212) can0 0DF80501#A40000000010FC0C
(1542794028.463777) can0 0DF80501#A53C007800BA1300
(1542794028.464364) can0 0DF80501#A600FFFFFFFFFFFF
(1542794028.486181) can0 09F50303#150000FFFF00FFFF
(1542794028.510786) can0 09F80101#9CA0D817EB808002
(1542794028.511354) can0 19FA0401#A093EFFE0C01390A
(1542794028.511926) can0 19FA0401#A1E664800C000000
(1542794028.512489) can0 19FA0401#A200F2027F077CD9
(1542794028.513093) can0 19FA0401#A3F00A00000000F2
(1542794028.513646) can0 19FA0401#A403F31B39379411
(1542794028.514227) can0 19FA0401#A500000000F206C5
(1542794028.514789) can0 19FA0401#A6224DD1A00F0000
(1542794028.515359) can0 09FD0205#000000A715FAFFFF
(1542794028.515920) can0 19FA0401#A70000F207FF0EE6
(1542794028.516491) can0 19FA0401#A873D80E00000000
(1542794028.517047) can0 19FA0401#A9F2097F347CAC3C
(1542794028.536052) can0 19FA0401#AA0F00000000F211
(1542794028.536612) can0 19FA0401#ABAE0FCE9C100E00
(1542794028.537182) can0 19FA0401#AC000000F2137314
(1542794028.537740) can0 19FA0401#AD36AF3011000000
(1542794028.538302) can0 19FA0401#AE00F216AE0F1640
(1542794028.538878) can0 19FA0401#AFA00F00000000F2
(1542794028.539434) can0 19FA0401#B017B92FA21CD80E
(1542794028.539998) can0 19FA0401#B100000000F24A5C
(1542794028.540562) can0 19FA0401#B210DC2600000000
(1542794028.541119) can0 19FA0401#B30000F242D11593
(1542794028.541694) can0 19FA0401#B4BF1C0C00000000
(1542794028.560518) can0 19FA0401#B5F2FFFFFFFFFFFF
(1542794028.561108) can0 0DF90304#ED3FFFFFFF7FFFFF
(1542794028.561690) can0 0DF90404#A022EDFFFFFFFFFF
(1542794028.562283) can0 0DF90404#A1FFFFFFFFFFFFFF
(1542794028.562871) can0 0DF90404#A2FFFFFFFFFFFFFF
(1542794028.563462) can0 0DF90404#A3FFFFFFFFFFFFFF
(1542794028.564048) can0 0DF90404#A47FFFFFFF7FFF7F
(1542794028.611172) can0 09F80101#9CA0D817EB808002
(1542794028.614429) can0 09FD0205#000000F913FAFFFF
(1542794028.685772) can0 08FF000A#1399040500000200
(1542794028.686349) can0 09F50303#160000FFFF00FFFF
(1542794028.710836) can0 09F80101#9CA0D817EB808002
(1542794028.711416) can0 09F80201#EFFC00000500FFFF
(1542794028.711997) can0 1DF90504#E027FFFF0200FFFF
(1542794028.712577) can0 1DF90504#E1FFFFE7030100FF
(1542794028.713168) can0 1DF90504#E20000030100FFFF
(1542794028.713750) can0 1DF90504#E3FF7FFFFFFF7F01
(1542794028.714335) can0 1DF90504#E400030100FFFFFF
(1542794028.714921) can0 1DF90504#E57FFFFFFF7FFFFF
(1542794028.715506) can0 0DFF0804#A0027D99FFFFFFFF
(1542794028.738873) can0 09FD0205#0000007D11FAFFFF
(1542794028.810884) can0 09F80101#98A0D817DE808002
(1542794028.838535) can0 09FD0205#000000270FFAFFFF
(1542794028.886197) can0 09F50303#170000FFFF00FFFF
(1542794028.911116) can0 1CFF1906#419F010B00000000
(1542794028.911691) can0 09F80101#97A0D817DE808002
(1542794028.912269) can0 19FA0301#EFD73C006E00FF7F
(1542794028.935375) can0 08FF000A#1399040500000200
(1542794028.938606) can0 09FD0205#000000360CFAFFFF
(1542794029.010768) can0 09F80101#97A0D817DE808002
(1542794029.011373) can0 09F80201#EFFC00000000FFFF
(1542794029.038537) can0 09FD0205#0000006A09FAFFFF
(1542794029.086163) can0 09F50303#180000FFFF00FFFF
(1542794029.110865) can0 1DF11A01#EFFFFFFFF500FFFF
(1542794029.111450) can0 1DF11A04#EEFFFFFFF500FFFF
(1542794029.112025) can0 09F80101#97A0D817DE808002
(1542794029.138543) can0 09FD0205#000000A406FAFFFF
(1542794029.185903) can0 08FF000A#1399040500000200
(1542794029.210801) can0 09F80101#97A0D817DE808002
(1542794029.238534) can0 09FD0205#000000BA03FAFFFF
(1542794029.260732) can0 0DF01001#EFF0C14590C63F19
(1542794029.261306) can0 09F80201#F0FC00000000FFFF
(1542794029.286171) can0 09F50303#190000FFFF00FFFF
(1542794029.310414) can0 09F80101#97A0D817DE808002
(1542794029.315779) can0 1DEFFF03#200FE59856050404
(1542794029.316356) can0 1DEFFF03#2103000000010000
(1542794029.316938) can0 1DEFFF03#220000FFFFFFFFFF
(1542794029.338732) can0 09FD0205#000000EE00FAFFFF
(1542794029.414303) can0 09FD0205#000000B0F3FAFFFF
(1542794029.436369) can0 08FF000A#1399040500000200
(1542794029.460565) can0 1CFF1906#419F010300000000
(1542794029.461134) can0 09F80101#97A0D817DE808002
(1542794029.461698) can0 0DF80501#C02BF0C145A0ED3F
(1542794029.462249) can0 0DF80501#C11940268D562458
(1542794029.462810) can0 0DF80501#C28D05002C3B15FA
(1542794029.463367) can0 0DF80501#C3209500704A2403
(1542794029.463951) can0 0DF80501#C40000000010FC0C
(1542794029.464514) can0 0DF80501#C53C007800BA1300
(1542794029.465100) can0 0DF80501#C600FFFFFFFFFFFF
(1542794029.486183) can0 09F50303#1A0000FFFF00FFFF
(1542794029.510599) can0 09F80201#F0FC00000500FFFF
(1542794029.511167) can0 19FA0401#C093F0FE0C01390A
(1542794029.511737) can0 19FA0401#C1E6641C0C000000
(1542794029.512296) can0 19FA0401#C200F2027F077CD9
(1542794029.512872) can0 19FA0401#C3F00A00000000F2
(1542794029.513459) can0 19FA0401#C403F31B39379411
(1542794029.513997) can0 19FA0401#C500000000F206C5
(1542794029.514559) can0 19FA0401#C6224DD1A00F0000
(1542794029.515126) can0 19FA0401#C70000F207FF0EE6
(1542794029.515694) can0 19FA0401#C873D80E00000000
(1542794029.516251) can0 19FA0401#C9F2097F347CAC3C
(1542794029.535810) can0 19FA0401#CA0F00000000F211
(1542794029.536368) can0 19FA0401#CBAE0FCE9C100E00
(1542794029.536932) can0 19FA0401#CC000000F2137314
(1542794029.537492) can0 19FA0401#CD36AF3011000000
(1542794029.538047) can0 19FA0401#CE00F216AE0F1640
(1542794029.538624) can0 19FA0401#CFA00F00000000F2
(1542794029.539175) can0 19FA0401#D017B92FA21CD80E
(1542794029.539759) can0 09FD0205#0000001DF1FAFFFF
(1542794029.540325) can0 19FA0401#D100000000F24A5C
(1542794029.540897) can0 19FA0401#D210DC2600000000
(1542794029.541457) can0 19FA0401#D30000F242D11593
(1542794029.542041) can0 19FA0401#D4BF1C0C00000000
(1542794029.561360) can0 19FA0401#D5F2FFFFFFFFFFFF
(1542794029.561931) can0 0DF90304#EE3FFFFFFF7FFFFF
(1542794029.562533) can0 0DF90404#C022EEFFFFFFFFFF
(1542794029.563138) can0 0DF90404#C1FFFFFFFFFFFFFF
(1542794029.563744) can0 0DF90404#C2FFFFFFFFFFFFFF
(1542794029.564338) can0 0DF90404#C3FFFFFFFFFFFFFF
(1542794029.564934) can0 0DF90404#C47FFFFFFF7FFF7F
(1542794029.611340) can0 09F80101#97A0D817DE808002
(1542794029.638521) can0 09FD0205#000000BCEEFAFFFF
(1542794029.686201) can0 09F50303#1B0000FFFF00FFFF
(1542794029.686770) can0 08FF000A#1399040500000200
(1542794029.711046) can0 09F80101#97A0D817DE808002
(1542794029.711634) can0 0DFF0804#C0027D99FFFFFFFF
(1542794029.714429) can0 09FD0205#000000ADECFAFFFF
(1542794029.810733) can0 09F80101#89A0D817E6808002
(1542794029.811322) can0 09F80201#F0FC00000000FFFF
(1542794029.838522) can0 09FD0205#000000D2EAFAFFFF
(1542794029.886203) can0 09F50303#1C0000FFFF00FFFF
(1542794029.911323) can0 09F80101#89A0D817E8808002
(1542794029.911896) can0 19FA0301#F0D73C006E00FF7F
(1542794029.935663) can0 08FF000A#1399040500000200
(1542794029.938604) can0 09FD0205#00000038E9FAFFFF
(1542794029.960969) can0 1CFF1906#419F010B00000000
(1542794030.011235) can0 09F80101#8BA0D817E8808002
(1542794030.038522) can0 09FD0205#0000002AE8FAFFFF
(1542794030.060973) can0 09F80201#F0FC00000000FFFF
(1542794030.086227) can0 09F50303#1D0000FFFF00FFFF
(1542794030.110995) can0 1DF11A01#F0FFFFFFF500FFFF
(1542794030.111588) can0 1DF11A04#EFFFFFFFF500FFFF
(1542794030.112170) can0 09F80101#89A0D817E8808002
(1542794030.138519) can0 09FD0205#000000C9E7FAFFFF
(1542794030.186035) can0 08FF000A#1399040500000200
(1542794030.210747) can0 09F80101#89A0D817E8808002
(1542794030.238519) can0 09FD0205#000000AAE7FAFFFF
(1542794030.260588) can0 0DF01001#F0F0C145A0ED3F19
(1542794030.286272) can0 09F50303#1E0000FFFF00FFFF
(1542794030.286837) can0 09FD0803#1E01000F71FFFFFF
(1542794030.310703) can0 09F80101#89A0D817E8808002
(1542794030.311290) can0 09F80201#F1FC00000500FFFF
(1542794030.315756) can0 1DEFFF03#400FE59856050404
(1542794030.316335) can0 1DEFFF03#4103000000010000
(1542794030.316913) can0 1DEFFF03#420000FFFFFFFFFF
(1542794030.338733) can0 09FD0205#00000041E8FAFFFF
(1542794030.410412) can0 09F80101#89A0D817E8808002
(1542794030.435688) can0 08FF000A#1399040500000200
(1542794030.438574) can0 09FD0205#001900F6E8FAFFFF
(1542794030.461130) can0 1CFF1906#419F010300000000
(1542794030.486218) can0 09F50303#1F0000FFFF00FFFF
(1542794030.511172) can0 0DF80501#E02BF1C145B01440
(1542794030.511718) can0 0DF80501#E119C0A0D23B2158
(1542794030.512282) can0 0DF80501#E28D0500104769FC
(1542794030.512843) can0 0DF80501#E3209500001B2803
(1542794030.513453) can0 0DF80501#E40000000010FC0C
(1542794030.513984) can0 0DF80501#E53C007800BA1300
(1542794030.514563) can0 0DF80501#E600FFFFFFFFFFFF
(1542794030.515127) can0 19FA0401#E093F1FE0C01390A
(1542794030.515696) can0 19FA0401#E1E6641C0C000000
(1542794030.516256) can0 19FA0401#E200F2027F077CD9
(1542794030.516827) can0 19FA0401#E3F00A00000000F2
(1542794030.535424) can0 19FA0401#E403F31B39373011
(1542794030.535993) can0 19FA0401#E500000000F206C5
(1542794030.536557) can0 19FA0401#E6224DD1A00F0000
(1542794030.537125) can0 19FA0401#E70000F207FF0EE6
(1542794030.537693) can0 19FA0401#E873D80E00000000
(1542794030.538249) can0 19FA0401#E9F2097F347CAC3C
(1542794030.538823) can0 19FA0401#EA0F00000000F211
(1542794030.539389) can0 19FA0401#EBAE0FCE9C100E00
(1542794030.539961) can0 09FD0205#0019006CEAFAFFFF
(1542794030.540522) can0 19FA0401#EC000000F2137314
(1542794030.541087) can0 19FA0401#ED36AF3011000000
(1542794030.541642) can0 19FA0401#EE00F216AE0F1640
(1542794030.560974) can0 19FA0401#EF3C0F00000000F2
(1542794030.561523) can0 19FA0401#F017B92FA21C740E
(1542794030.562086) can0 19FA0401#F100000000F24A5C
(1542794030.562656) can0 19FA0401#F210DC2600000000
(1542794030.563214) can0 19FA0401#F30000F242D11593
(1542794030.563781) can0 19FA0401#F4BF1C0C00000000
(1542794030.564364) can0 19FA0401#F5F2FFFFFFFFFFFF
(1542794030.564934) can0 09F80101#89A0D817E8808002
(1542794030.565509) can0 09F80201#F1FC00000500FFFF
(1542794030.566098) can0 0DF90304#EF3FFFFFFF7FFFFF
(1542794030.566681) can0 0DF90404#E022EFFFFFFFFFFF
(1542794030.586257) can0 0DF90404#E1FFFFFFFFFFFFFF
(1542794030.586843) can0 0DF90404#E2FFFFFFFFFFFFFF
(1542794030.587434) can0 0DF90404#E3FFFFFFFFFFFFFF
(1542794030.588022) can0 0DF90404#E47FFFFFFF7FFF7F
(1542794030.638520) can0 09FD0205#0019007FECFAFFFF
(1542794030.660466) can0 09F80101#89A0D817E8808002
(1542794030.685788) can0 08FF000A#1399040500000200
(1542794030.686366) can0 09F50303#200000FFFF00FFFF
(1542794030.738502) can0 09FD0205#00190045EFFAFFFF
(1542794030.760413) can0 09F80101#6FA0D817F3808002
(1542794030.761004) can0 0DFF0804#E0027D99FFFFFFFF
(1542794030.810445) can0 09F80201#F1FC00000500FFFF
(1542794030.814349) can0 09FD0205#000000C1F2FAFFFF
(1542794030.861239) can0 09F80101#6FA0D817F3808002
(1542794030.886196) can0 09F50303#210000FFFF00FFFF
(1542794030.911240) can0 19FA0301#F1D73C006E00FF7F
(1542794030.935642) can0 08FF000A#1399040500000200
(1542794030.938577) can0 09FD0205#0000002601FAFFFF
(1542794030.961248) can0 1CFF1906#419F010B00000000
(1542794030.961836) can0 09F80101#6FA0D817F3808002
(1542794031.014338) can0 09FD0205#0000007A05FAFFFF
(1542794031.060603) can0 09F80101#6FA0D817F3808002
(1542794031.061142) can0 09F80201#F1FC00000A00FFFF
(1542794031.086227) can0 09F50303#220000FFFF00FFFF
(1542794031.110424) can0 1DF11A01#F1FFFFFFF500FFFF
(1542794031.111017) can0 1DF11A04#F0FFFFFFF500FFFF
(1542794031.138504) can0 09FD0205#000000F709FAFFFF
(1542794031.161224) can0 09F80101#6FA0D817F3808002
(1542794031.185558) can0 08FF000A#1399040500000200
(1542794031.238524) can0 09FD0205#000000D90EFAFFFF
(1542794031.260516) can0 0DF01001#F1F0C145B0144019
(1542794031.261094) can0 09F80101#6FA0D817F3808002
(1542794031.286193) can0 09F50303#230000FFFF00FFFF
(1542794031.310813) can0 09F80201#F2FC00000500FFFF
(1542794031.315796) can0 1DEFFF03#600FE59856050404
(1542794031.316372) can0 1DEFFF03#6103000000010000
(1542794031.316954) can0 1DEFFF03#620000FFFFFFFFFF
(1542794031.338714) can0 09FD0205#000000E913FAFFFF
(1542794031.360629) can0 09F80101#6FA0D817F3808002
(1542794031.414251) can0 09FD0205#0000000219FAFFFF
(1542794031.435542) can0 08FF000A#1399040500000200
(1542794031.461137) can0 1CFF1906#419F010300000000
(1542794031.461726) can0 09F80101#6FA0D817F3808002
(1542794031.486192) can0 09F50303#240000FFFF00FFFF
(1542794031.510909) can0 0DF80501#002BF2C145C03B40
(1542794031.511461) can0 0DF80501#011900965D061B58
(1542794031.512027) can0 0DF80501#028D05B044AA20FF
(1542794031.512585) can0 0DF80501#032095007CC42B03
(1542794031.513173) can0 0DF80501#040000000010FC0C
(1542794031.513735) can0 0DF80501#053C007800BA1300
(1542794031.514320) can0 0DF80501#0600FFFFFFFFFFFF
(1542794031.514888) can0 19FA0401#0093F2FE0C01390A
(1542794031.515472) can0 19FA0401#01E6641C0C000000
(1542794031.516041) can0 19FA0401#0200F2027F077CD9
(1542794031.516616) can0 19FA0401#03F00A00000000F2
(1542794031.536131) can0 19FA0401#0403F31B39379411
(1542794031.536707) can0 19FA0401#0500000000F206C5
(1542794031.537268) can0 19FA0401#06224DD1A00F0000
(1542794031.537841) can0 19FA0401#070000F207FF0EE6
(1542794031.538420) can0 19FA0401#0873D80E00000000
(1542794031.538993) can0 19FA0401#09F2097F347CAC3C
(1542794031.539573) can0 09FD0205#000000181EFAFFFF
(1542794031.540146) can0 19FA0401#0A0F00000000F211
(1542794031.540730) can0 19FA0401#0BAE0FCE9C100E00
(1542794031.541296) can0 19FA0401#0C000000F2137314
(1542794031.541857) can0 19FA0401#0D36AF3011000000
(1542794031.542415) can0 19FA0401#0E00F216AE0F1640
(1542794031.560622) can0 19FA0401#0F3C0F00000000F2
(1542794031.561180) can0 19FA0401#1017B92FA21C740E
(1542794031.561747) can0 19FA0401#1100000000F24A5C
(1542794031.562312) can0 19FA0401#1210DC2678050000
(1542794031.562871) can0 19FA0401#130000F242D11593
(1542794031.563452) can0 19FA0401#14BF1C0C00000000
(1542794031.564040) can0 19FA0401#15F2FFFFFFFFFFFF
(1542794031.564604) can0 09F80101#6FA0D817F3808002
(1542794031.565181) can0 09F80201#F2FC00000500FFFF
(1542794031.565770) can0 0DF90304#F03FFFFFFF7FFFFF
(1542794031.566353) can0 0DF90404#0022F0FFFFFFFFFF
(1542794031.585945) can0 0DF90404#01FFFFFFFFFFFFFF
(1542794031.586547) can0 0DF90404#02FFFFFFFFFFFFFF
(1542794031.587150) can0 0DF90404#03FFFFFFFFFFFFFF
(1542794031.587749) can0 0DF90404#047FFFFFFF7FFF7F
(1542794031.638497) can0 09FD0205#000000D422FAFFFF
(1542794031.661053) can0 09F80101#6FA0D817F3808002
(1542794031.685335) can0 08FF000A#1399040500000200
(1542794031.686286) can0 09F50303#250000FFFF00FFFF
(1542794031.738503) can0 09FD0205#000000EA27FAFFFF
(1542794031.760767) can0 09F80101#57A0D817EB808002
(1542794031.761361) can0 0DFF0804#00027D99FFFFFFFF
(1542794031.811327) can0 09F80201#F2FC00000A00FFFF
(1542794031.838512) can0 09FD0205#000000492CFAFFFF
(1542794031.861099) can0 09F80101#57A0D817EB808002
(1542794031.886232) can0 09F50303#260000FFFF00FFFF
(1542794031.911160) can0 19FA0301#F2D73C006E00FF7F
(1542794031.935508) can0 08FF000A#1399040500000200
(1542794031.938570) can0 09FD0205#0000007030FAFFFF
(1542794031.960859) can0 1CFF1906#419F010B00000000
(1542794031.961416) can0 09F80101#57A0D817EC808002
(1542794032.038484) can0 09FD0205#0019005B33FAFFFF
(1542794032.061182) can0 09F80101#57A0D817EC808002
(1542794032.061760) can0 09F80201#F2FC00000A00FFFF
(1542794032.086204) can0 09F50303#270000FFFF00FFFF
(1542794032.111312) can0 1DF11A01#F2FFFFFFF500FFFF
(1542794032.111897) can0 1DF11A04#F1FFFFFFF500FFFF
(1542794032.138480) can0 09FD0205#001900BC35FAFFFF
(1542794032.161123) can0 09F80101#57A0D817EC808002
(1542794032.185460) can0 08FF000A#1399040500000200
(1542794032.238489) can0 09FD0205#0019007837FAFFFF
(1542794032.261321) can0 0DF01001#F2F0C145C03B4019
(1542794032.261889) can0 09F80101#57A0D817EC808002
(1542794032.286326) can0 09F50303#280000FFFF00FFFF
(1542794032.286895) can0 09FD0803#280100FC70FFFFFF
(1542794032.310644) can0 09F80201#F3FC00000500FFFF
(1542794032.315829) can0 1DEFFF03#800FE59856050404
(1542794032.316409) can0 1DEFFF03#8103000000010000
(1542794032.316995) can0 1DEFFF03#820000FFFFFFFFFF
(1542794032.338690) can0 09FD0205#0019004138FAFFFF
(1542794032.360474) can0 09F80101#57A0D817EC808002
(1542794032.435494) can0 08FF000A#1399040500000200
(1542794032.438548) can0 09FD0205#0000002438FAFFFF
(1542794032.460999) can0 1CFF1906#419F010300000000
(1542794032.461562) can0 09F80101#57A0D817EC808002
(1542794032.486215) can0 09F50303#290000FFFF00FFFF
(1542794032.510992) can0 0DF80501#202BF3C145D06240
(1542794032.511543) can0 0DF80501#2119802C97971558
(1542794032.512107) can0 0DF80501#228D05F8014D93FD
(1542794032.512667) can0 0DF80501#2320950060E72D03
(1542794032.513249) can0 0DF80501#240000000010FC0C
(1542794032.513820) can0 0DF80501#253C007800BA1300
(1542794032.514416) can0 0DF80501#2600FFFFFFFFFFFF
(1542794032.514980) can0 19FA0401#2093F3FE0C01390A
(1542794032.515554) can0 19FA0401#21E6641C0C000000
(1542794032.516117) can0 19FA0401#2200F2027F077CD9
(1542794032.516697) can0 19FA0401#23F00A00000000F2
(1542794032.535230) can0 19FA0401#2403F31B39379411
(1542794032.535799) can0 19FA0401#2500000000F206C5
(1542794032.536363) can0 19FA0401#26224DD1A00F0000
(1542794032.536929) can0 19FA0401#270000F207FF0EE6
(1542794032.537503) can0 19FA0401#2873D80E00000000
(1542794032.538070) can0 19FA0401#29F2097F347CACD8
(1542794032.538643) can0 19FA0401#2A0E00000000F211
(1542794032.539211) can0 19FA0401#2BAE0FCE9C100E00
(1542794032.539783) can0 09FD0205#0000003C37FAFFFF
(1542794032.540349) can0 19FA0401#2C000000F2137314
(1542794032.540916) can0 19FA0401#2D36AF3011000000
(1542794032.541477) can0 19FA0401#2E00F216AE0F1640
(1542794032.560636) can0 19FA0401#2F3C0F00000000F2
(1542794032.561151) can0 19FA0401#3017B92FA21C740E
(1542794032.561726) can0 19FA0401#3100000000F24A5C
(1542794032.562283) can0 19FA0401#3210DC2678050000
(1542794032.562843) can0 19FA0401#330000F242D11593
(1542794032.563459) can0 19FA0401#34BF1C0C00000000
(1542794032.564018) can0 19FA0401#35F2FFFFFFFFFFFF
(1542794032.610463) can0 09F80101#57A0D817EC808002
(1542794032.611051) can0 09F80201#F3FC00000000FFFF
(1542794032.611647) can0 0DF90304#F13FFFFFFF7FFFFF
(1542794032.612242) can0 0DF90404#2022F1FFFFFFFFFF
(1542794032.612845) can0 0DF90404#21FFFFFFFFFFFFFF
(1542794032.613455) can0 0DF90404#22FFFFFFFFFFFFFF
(1542794032.614053) can0 0DF90404#23FFFFFFFFFFFFFF
(1542794032.614651) can0 0DF90404#247FFFFFFF7FFF7F
(1542794032.638676) can0 09FD0205#000000B135FAFFFF
(1542794032.685534) can0 08FF000A#1399040500000200
(1542794032.686321) can0 09F50303#2A0000FFFF00FFFF
(1542794032.711260) can0 09F80101#57A0D817EC808002
(1542794032.714363) can0 09FD0205#0000006D33FAFFFF
(1542794032.761056) can0 0DFF0804#20027D99FFFFFFFF
(1542794032.810543) can0 09F80101#3DA0D817EC808002
(1542794032.838483) can0 09FD0205#000000A630FAFFFF
(1542794032.861324) can0 09F80201#F3FC7E400A00FFFF
(1542794032.886264) can0 09F50303#2B0000FFFF00FFFF
(1542794032.910985) can0 09F80101#3DA0D817EC808002
(1542794032.911568) can0 19FA0301#F3D73C006E00FF7F
(1542794032.935375) can0 08FF000A#1399040500000200
(1542794032.938541) can0 09FD0205#0000006F2DFAFFFF
(1542794033.012426) can0 1CFF1906#419F010B00000000
(1542794033.013004) can0 09F80101#3DA0D817EC808002
(1542794033.035852) can0 0DFF060A#800F1399FF010009
(1542794033.036437) can0 0DFF060A#810004FC121C0000
(1542794033.037047) can0 0DFF060A#82AFFDFFFFFFFFFF
(1542794033.038746) can0 09FD0205#000000F929FAFFFF
(1542794033.086268) can0 09F50303#2C0000FFFF00FFFF
(1542794033.110543) can0 1DF11A01#F3FFFFFFF500FFFF
(1542794033.111133) can0 1DF11A04#F2FFFFFFF500FFFF
(1542794033.111714) can0 09F80101#3DA0D817EC808002
(1542794033.112311) can0 09F80201#F3FC00000A00FFFF
(1542794033.114486) can0 09FD0205#0000007926FAFFFF
(1542794033.185579) can0 08FF000A#1399040500000200
(1542794033.210751) can0 09F80101#3DA0D817EC808002
(1542794033.238478) can0 09FD0205#0000005B22FAFFFF
(1542794033.260590) can0 0DF01001#F3F0C145D0624019
(1542794033.286064) can0 0DFF060A#A00F1399FF010001
(1542794033.286643) can0 09F50303#2D0000FFFF00FFFF
(1542794033.287212) can0 0DFF060A#A10101FC02770000
(1542794033.287795) can0 0DFF060A#A233A6FFFFFFFFFF
(1542794033.311020) can0 09F80101#3DA0D817EC808002
(1542794033.315828) can0 1DEFFF03#A00FE59856050404
(1542794033.316404) can0 1DEFFF03#A103000000010000
(1542794033.316989) can0 1DEFFF03#A20000FFFFFFFFFF
(1542794033.338672) can0 09FD0205#001900E11DFAFFFF
(1542794033.410604) can0 09F80101#3DA0D817EC808002
(1542794033.411197) can0 09F80201#F4FC00000000FFFF
(1542794033.435891) can0 08FF000A#1399040500000200
(1542794033.438538) can0 09FD0205#0019009819FAFFFF
(1542794033.486242) can0 09F50303#2E0000FFFF00FFFF
(1542794033.510551) can0 1CFF1906#419F010300000000
(1542794033.511120) can0 09F80101#3DA0D817EC808002
(1542794033.511681) can0 0DF80501#402BF4C145E08940
(1542794033.512244) can0 0DF80501#4119802222620F58
(1542794033.512804) can0 0DF80501#428D05F8014D93FD
(1542794033.513362) can0 0DF80501#43209500242D3203
(1542794033.513937) can0 0DF80501#440000000010FC0C
(1542794033.514498) can0 0DF80501#453C007800BA1300
(1542794033.515077) can0 0DF80501#4600FFFFFFFFFFFF
(1542794033.538742) can0 09FD0205#0019001C15FAFFFF
(1542794033.561202) can0 19FA0401#4093F4FE0C01390A
(1542794033.561796) can0 19FA0401#41E6641C0C000000
(1542794033.562382) can0 19FA0401#4200F2027F077CD9
(1542794033.562960) can0 19FA0401#43F00A00000000F2
(1542794033.563525) can0 19FA0401#4403F31B39379411
(1542794033.564100) can0 19FA0401#4500000000F206C5
(1542794033.564663) can0 19FA0401#46224DD1A00F0000
(1542794033.565244) can0 19FA0401#470000F207FF0EE6
(1542794033.565831) can0 19FA0401#4873740E00000000
(1542794033.566396) can0 19FA0401#49F2097F347CACD8
(1542794033.566976) can0 19FA0401#4A0E00000000F211
(1542794033.585648) can0 19FA0401#4BAE0FCE9C100E00
(1542794033.586223) can0 19FA0401#4C000000F2137314
(1542794033.586793) can0 19FA0401#4D36AF3011000000
(1542794033.587361) can0 19FA0401#4E00F216AE0F1640
(1542794033.587942) can0 19FA0401#4F3C0F00000000F2
(1542794033.588501) can0 19FA0401#5017B92FA21C740E
(1542794033.589085) can0 19FA0401#5100000000F24A5C
(1542794033.589646) can0 19FA0401#5210DC2678050000
(1542794033.590216) can0 19FA0401#530000F242D11593
(1542794033.590802) can0 19FA0401#54BFB80B00000000
(1542794033.591399) can0 19FA0401#55F2FFFFFFFFFFFF
(1542794033.610807) can0 09F80101#3DA0D817EC808002
(1542794033.611400) can0 0DF90304#F23FFFFFFF7FFFFF
(1542794033.611992) can0 0DF90404#4022F2FFFFFFFFFF
(1542794033.612600) can0 0DF90404#41FFFFFFFFFFFFFF
(1542794033.613206) can0 0DF90404#42FFFFFFFFFFFFFF
(1542794033.613796) can0 0DF90404#43FFFFFFFFFFFFFF
(1542794033.614393) can0 0DF90404#447FFFFFFF7FFF7F
(1542794033.638591) can0 09FD0205#0019006A10FAFFFF
(1542794033.660648) can0 09F80201#F4FC00000A00FFFF
(1542794033.685974) can0 08FF000A#1399040500000200
(1542794033.686547) can0 09F50303#2F0000FFFF00FFFF
(1542794033.711034) can0 09F80101#3EA0D817EC808002
(1542794033.711627) can0 1DF90504#0027FFFF0200FFFF
(1542794033.712227) can0 1DF90504#01FFFFE7030100FF
(1542794033.712819) can0 1DF90504#020000030100FFFF
(1542794033.713447) can0 1DF90504#03FF7FFFFFFF7F01
(1542794033.714021) can0 1DF90504#0400030100FFFFFF
(1542794033.714616) can0 1DF90504#057FFFFFFF7FFFFF
(1542794033.738667) can0 09FD0205#000000E10BFAFFFF
(1542794033.760873) can0 0DFF0804#40027D99FFFFFFFF
(1542794033.810996) can0 09F80101#25A0D817EC808002
(1542794033.814368) can0 09FD0205#0000006A07FAFFFF
(1542794033.886266) can0 09F50303#300000FFFF00FFFF
(1542794033.911254) can0 09F80101#25A0D817EC808002
(1542794033.911854) can0 09F80201#F4FC00000500FFFF
(1542794033.912422) can0 19FA0301#F4D73C006E00FF7F
(1542794033.935645) can0 08FF000A#1399040500000200
(1542794033.938532) can0 09FD0205#000000C202FAFFFF
(1542794034.010447) can0 1CFF1906#419F010B00000000
(1542794034.011019) can0 09F80101#25A0D817EC808002
(1542794034.038468) can0 09FD0205#000000DFF3FAFFFF
(1542794034.086318) can0 09F50303#310000FFFF00FFFF
(1542794034.111122) can0 1DF11A01#F4FFFFFFF500FFFF
(1542794034.111726) can0 1DF11A04#F3FFFFFFF500FFFF
(1542794034.112304) can0 09F80101#25A0D817EC808002
(1542794034.138484) can0 09FD0205#0000006BEFFAFFFF
(1542794034.160973) can0 09F80201#F4FC00000500FFFF
(1542794034.186296) can0 08FF000A#1399040500000200
(1542794034.210380) can0 09F80101#25A0D817EC808002
(1542794034.238464) can0 09FD0205#00000039EBFAFFFF
(1542794034.261219) can0 0DF01001#F4F0C145E0894019
(1542794034.286321) can0 09F50303#320000FFFF00FFFF
(1542794034.286893) can0 09FD0803#320100FC70FFFFFF
(1542794034.311194) can0 09F80101#25A0D817EC808002
(1542794034.315821) can0 1DEFFF03#C00FE59856050404
(1542794034.316400) can0 1DEFFF03#C103000000010000
(1542794034.316980) can0 1DEFFF03#C20000FFFFFFFFFF
(1542794034.338666) can0 09FD0205#0000003EE7FAFFFF
(1542794034.410975) can0 09F80101#25A0D817EC808002
(1542794034.411553) can0 09F80201#F5FC00000500FFFF
(1542794034.436261) can0 08FF000A#1399040500000200
(1542794034.438526) can0 09FD0205#00000082E3FAFFFF
(1542794034.486295) can0 09F50303#330000FFFF00FFFF
(1542794034.510782) can0 1CFF1906#419F010300000000
(1542794034.511352) can0 09F80101#25A0D817EC808002
(1542794034.511924) can0 0DF80501#602BF5C145F0B040
(1542794034.512475) can0 0DF80501#611900B95BF30958
(1542794034.513048) can0 0DF80501#628D05F8014D93FD
(1542794034.513600) can0 0DF80501#63209500F0283403
(1542794034.514179) can0 0DF80501#640000000010FC0C
(1542794034.514744) can0 0DF80501#653C007800BA1300
(1542794034.515326) can0 0DF80501#6600FFFFFFFFFFFF
(1542794034.538799) can0 09FD0205#00000018E0FAFFFF
(1542794034.560356) can0 19FA0401#6093F5FE0C01390A
(1542794034.560930) can0 19FA0401#61E6641C0C000000
(1542794034.561488) can0 19FA0401#6200F2027F077CD9
(1542794034.562078) can0 19FA0401#63F00A00000000F2
(1542794034.562637) can0 19FA0401#6403F31B39379411
(1542794034.563210) can0 19FA0401#6500000000F206C5
(1542794034.563762) can0 19FA0401#66224DD1A00F0000
(1542794034.564326) can0 19FA0401#670000F207FF0EE6
(1542794034.564893) can0 19FA0401#6873D80E00000000
(1542794034.565457) can0 19FA0401#69F2097F347CACD8
(1542794034.566022) can0 19FA0401#6A0E00000000F211
(1542794034.585615) can0 19FA0401#6BAE0FCE9C740E00
(1542794034.586177) can0 19FA0401#6C000000F2137314
(1542794034.586743) can0 19FA0401#6D36AF3011000000
(1542794034.587299) can0 19FA0401#6E00F216AE0F1640
(1542794034.587867) can0 19FA0401#6F3C0F00000000F2
(1542794034.588420) can0 19FA0401#7017B92FA21C740E
(1542794034.588989) can0 19FA0401#7100000000F24A5C
(1542794034.589549) can0 19FA0401#7210DC2678050000
(1542794034.590121) can0 19FA0401#730000F242D11593
(1542794034.590693) can0 19FA0401#74BFB80B00000000
(1542794034.591277) can0 19FA0401#75F2FFFFFFFFFFFF
(1542794034.610412) can0 09F80101#25A0D817EC808002
(1542794034.611010) can0 0DF90304#F33FFFFFFF7FFFFF
(1542794034.611600) can0 0DF90404#6022F3FFFFFFFFFF
(1542794034.612198) can0 0DF90404#61FFFFFFFFFFFFFF
(1542794034.612802) can0 0DF90404#62FFFFFFFFFFFFFF
(1542794034.613401) can0 0DF90404#63FFFFFFFFFFFFFF
(1542794034.613992) can0 0DF90404#647FFFFFFF7FFF7F
(1542794034.638525) can0 09FD0205#000000F9DCFAFFFF
(1542794034.661288) can0 09F80201#F5FC00000500FFFF
(1542794034.685619) can0 08FF000A#1399040500000200
(1542794034.686372) can0 09F50303#340000FFFF00FFFF
(1542794034.710670) can0 09F80101#25A0D817EC808002
(1542794034.760407) can0 0DFF0804#60027D99FFFFFFFF
(1542794034.788464) can0 09FD0205#0000007DD8FAFFFF
(1542794034.811314) can0 09F80101#13A0D817F7808002
(1542794034.886260) can0 09F50303#350000FFFF00FFFF
(1542794034.888518) can0 09FD0205#000000EBD5FAFFFF
(1542794034.911118) can0 09F80101#13A0D817F7808002
(1542794034.911709) can0 09F80201#F5FC00000500FFFF
(1542794034.912289) can0 19FA0301#F5D73C006E00FF7F
(1542794034.935479) can0 08FF000A#1399040500000200
(1542794034.988455) can0 09FD0205#000000EED3FAFFFF
(1542794035.010361) can0 1CFF1906#419F010B00000000
(1542794035.010931) can0 09F80101#13A0D817F7808002
(1542794035.064118) can0 09FD0205#0000009DD2FAFFFF
(1542794035.086274) can0 09F50303#360000FFFF00FFFF
(1542794035.111010) can0 1DF11A01#F5FFFFFFF500FFFF
(1542794035.111593) can0 1DF11A04#F4FFFFFFF500FFFF
(1542794035.112174) can0 09F80101#13A0D817F8808002
(1542794035.164154) can0 09FD0205#0000009DD2FAFFFF
(1542794035.186000) can0 08FF000A#1399040500000200
(1542794035.210471) can0 09F80101#13A0D817F7808002
(1542794035.211033) can0 09F80201#F5FC00000500FFFF
(1542794035.260288) can0 0DF01001#F5F0C145F0B04019
(1542794035.286288) can0 09F50303#370000FFFF00FFFF
(1542794035.288515) can0 09FD0205#00000006D3FAFFFF
(1542794035.310506) can0 09F80101#13A0D817F8808002
(1542794035.315879) can0 1DEFFF03#E00FE59856050404
(1542794035.316457) can0 1DEFFF03#E103000000010000
(1542794035.317047) can0 1DEFFF03#E20000FFFFFFFFFF
(1542794035.388450) can0 09FD0205#000000B7D3FAFFFF
(1542794035.411279) can0 09F80101#13A0D817F8808002
(1542794035.435626) can0 08FF000A#1399040500000200
(1542794035.461131) can0 09F80201#F6FC00000A00FFFF
(1542794035.485527) can0 0DFF060A#C00F1399FF010002
(1542794035.486104) can0 0DFF060A#C100270002CD0100
(1542794035.486682) can0 09F50303#380000FFFF00FFFF
(1542794035.487255) can0 0DFF060A#C2DED8FFFFFFFFFF
(1542794035.488707) can0 09FD0205#000000C2D5FAFFFF
(1542794035.510615) can0 1CFF1906#419F010300000000
(1542794035.511180) can0 09F80101#13A0D817F8808002
(1542794035.511748) can0 0DF80501#802BF6C14500D840
(1542794035.512308) can0 0DF80501#811940419BAE0558
(1542794035.512871) can0 0DF80501#828D05B036B04A00
(1542794035.513458) can0 0DF80501#83219500F0993603
(1542794035.514000) can0 0DF80501#840000000010FC0C
(1542794035.514560) can0 0DF80501#853C007800BA1300
(1542794035.515142) can0 0DF80501#8600FFFFFFFFFFFF
(1542794035.561215) can0 19FA0401#8093F6FE0C018B09
(1542794035.561752) can0 19FA0401#81E6641C0C000000
(1542794035.562314) can0 19FA0401#8200F2027F077CD9
(1542794035.562894) can0 19FA0401#83F00A00000000F2
(1542794035.563458) can0 19FA0401#8403F31B39373011
(1542794035.564023) can0 19FA0401#8500000000F206C5
(1542794035.564581) can0 19FA0401#86224DD1A00F0000
(1542794035.565155) can0 09FD0205#000000B3D7FAFFFF
(1542794035.565715) can0 19FA0401#870000F207FF0EE6
(1542794035.566290) can0 19FA0401#8873740E00000000
(1542794035.566852) can0 19FA0401#89F2097F347CAC3C
(1542794035.567423) can0 19FA0401#8A0F00000000F211
(1542794035.585477) can0 19FA0401#8BAE0FCE9C740E00
(1542794035.586053) can0 19FA0401#8C000000F2137314
(1542794035.586628) can0 19FA0401#8D36AF3011000000
(1542794035.587193) can0 19FA0401#8E00F216AE0F1640
(1542794035.587778) can0 19FA0401#8FA00F00000000F2
(1542794035.588341) can0 19FA0401#9017B92FA21C740E
(1542794035.588918) can0 19FA0401#9100000000F24A5C
(1542794035.589513) can0 19FA0401#9210DC2600000000
(1542794035.590078) can0 19FA0401#930000F242D11593
(1542794035.590670) can0 19FA0401#94BFB80B00000000
(1542794035.591262) can0 19FA0401#95F2FFFFFFFFFFFF
(1542794035.610672) can0 09F80101#13A0D817F8808002
(1542794035.611291) can0 0DF90304#F43FFFFFFF7FFFFF
(1542794035.611880) can0 0DF90404#8022F4FFFFFFFFFF
(1542794035.612478) can0 0DF90404#81FFFFFFFFFFFFFF
(1542794035.613087) can0 0DF90404#82FFFFFFFFFFFFFF
(1542794035.613689) can0 0DF90404#83FFFFFFFFFFFFFF
(1542794035.614283) can0 0DF90404#847FFFFFFF7FFF7F
(1542794035.685694) can0 08FF000A#1399040500000200
(1542794035.686271) can0 09F50303#390000FFFF00FFFF
(1542794035.688576) can0 09FD0205#000000C2DAFAFFFF
(1542794035.710593) can0 09F80101#13A0D817F8808002
(1542794035.711182) can0 09F80201#F6FC00000A00FFFF
(1542794035.736007) can0 0DFF060A#E00F1399FF010003
(1542794035.736592) can0 0DFF060A#E1000C0002720000
(1542794035.737184) can0 0DFF060A#E27204FFFFFFFFFF
(1542794035.761149) can0 0DFF0804#80027D99FFFFFFFF
(1542794035.788438) can0 09FD0205#0000005DDEFAFFFF
(1542794035.811076) can0 09F80101#13A0D817F8808002
(1542794035.886318) can0 09F50303#3A0000FFFF00FFFF
(1542794035.888501) can0 09FD0205#001900ECE1FAFFFF
(1542794035.910463) can0 09F80101#04A0D81704818002
(1542794035.935853) can0 08FF000A#1399040500000200
(1542794035.960462) can0 09F80201#F6FC00000500FFFF
(1542794035.961018) can0 19FA0301#F6D73C006E00FF7F
(1542794035.985741) can0 0DFF060A#000F1399FF010005
(1542794035.986335) can0 0DFF060A#01002A0002D50000
(1542794035.986917) can0 0DFF060A#02FCDDFFFFFFFFFF
(1542794035.988635) can0 09FD0205#00190000E6FAFFFF
(1542794036.010689) can0 1CFF1906#419F010B00000000
(1542794036.011263) can0 09F80101#04A0D81704818002
(1542794036.086308) can0 09F50303#3B0000FFFF00FFFF
(1542794036.088489) can0 09FD0205#00190092E9FAFFFF
(1542794036.110548) can0 1DF11A01#F6FFFFFFF500FFFF
(1542794036.111142) can0 1DF11A04#F5FFFFFFF500FFFF
(1542794036.111731) can0 09F80101#04A0D81704818002
(1542794036.185577) can0 08FF000A#1399040500000200
(1542794036.188499) can0 09FD0205#00190020EDFAFFFF
(1542794036.211186) can0 09F80101#04A0D81704818002
(1542794036.211777) can0 09F80201#F6FC00000500FFFF
(1542794036.235881) can0 0DFF060A#200F1399FF010004
(1542794036.236464) can0 0DFF060A#2100550002E70300
(1542794036.237060) can0 0DFF060A#22E6FEFFFFFFFFFF
(1542794036.260525) can0 0DF01001#F6F0C14500D84019
